
T2FF4 000:148 SEGGER J-Link V6.10i Log File (0029ms, 0068ms total)
T2FF4 000:148 DLL Compiled: Oct 25 2016 19:31:51 (0029ms, 0068ms total)
T2FF4 000:148 Logging started @ 2019-01-25 01:38 (0029ms, 0068ms total)
T2FF4 000:177 JLINK_SetWarnOutHandler(...) (0000ms, 0068ms total)
T2FF4 000:177 JLINK_OpenEx(...)
Firmware: J-Link ARM-OB STM32 compiled Aug 22 2012 19:52:04
Hardware: V7.00
S/N: 20090928
Feature(s): RDI,FlashDL,FlashBP,JFlash,GDBFullWEBSRV Webserver running on local port 19080 (0021ms, 0089ms total)
T2FF4 000:177   returns O.K. (0021ms, 0089ms total)
T2FF4 000:198 JLINK_SetErrorOutHandler(...) (0000ms, 0089ms total)
T2FF4 000:198 JLINK_ExecCommand("ProjectFile = "F:\Project\STM32CUBE\MY_GB\MDK-ARM\JLinkSettings.ini"", ...). Device "STM32F405RG" selected.  returns 0x00 (0161ms, 0250ms total)
T2FF4 000:367 JLINK_ExecCommand("Device = STM32F405RGTx", ...). Device "STM32F405RG" selected.  returns 0x00 (0006ms, 0256ms total)
T2FF4 000:373 JLINK_ExecCommand("DisableConnectionTimeout", ...).   returns 0x01 (0000ms, 0256ms total)
T2FF4 000:373 JLINK_GetHardwareVersion()  returns 0x11170 (0000ms, 0256ms total)
T2FF4 000:373 JLINK_GetDLLVersion()  returns 61009 (0000ms, 0256ms total)
T2FF4 000:373 JLINK_GetFirmwareString(...) (0000ms, 0256ms total)
T2FF4 000:385 JLINK_GetDLLVersion()  returns 61009 (0000ms, 0256ms total)
T2FF4 000:385 JLINK_GetCompileDateTime() (0000ms, 0256ms total)
T2FF4 000:390 JLINK_GetFirmwareString(...) (0000ms, 0256ms total)
T2FF4 000:392 JLINK_GetHardwareVersion()  returns 0x11170 (0000ms, 0256ms total)
T2FF4 000:406 JLINK_TIF_Select(JLINKARM_TIF_SWD)  returns 0x00 (0002ms, 0259ms total)
T2FF4 000:408 JLINK_SetSpeed(5000) (0000ms, 0259ms total)
T2FF4 000:408 JLINK_GetId() >0x108 TIF>Found SWD-DP with ID 0x2BA01477 >0x0D TIF> >0x28 TIF> >0x0D TIF> >0x28 TIF> >0x0D TIF> >0x28 TIF> >0x0D TIF> >0x28 TIF> >0x0D TIF> >0x21 TIF> >0x0D TIF> >0x28 TIF> >0x0D TIF> >0x28 TIF> >0x0D TIF> >0x28 TIF> >0x0D TIF> >0x21 TIF> >0x0D TIF> >0x21 TIF> >0x0D TIF> >0x28 TIF> >0x0D TIF> >0x21 TIF> >0x0D TIF> >0x21 TIF> >0x0D TIF> >0x28 TIF> >0x0D TIF> >0x28 TIF> >0x0D TIF> >0x28 TIF> >0x0D TIF> >0x21 TIF> >0x0D TIF> >0x21 TIF> >0x0D TIF> >0x28 TIF> >0x0D TIF>
 >0x28 TIF> >0x0D TIF> >0x28 TIF> >0x0D TIF> >0x21 TIF> >0x0D TIF> >0x21 TIF> >0x0D TIF> >0x28 TIF> >0x0D TIF> >0x21 TIF> >0x0D TIF> >0x21 TIF> >0x0D TIF> >0x28 TIF> >0x0D TIF> >0x21 TIF> >0x0D TIF> >0x21 TIF> >0x108 TIF>Found SWD-DP with ID 0x2BA01477 >0x0D TIF> >0x28 TIF> >0x0D TIF> >0x28 TIF> >0x0D TIF> >0x28 TIF> >0x0D TIF> >0x28 TIF> >0x0D TIF> >0x21 TIF> >0x0D TIF> >0x28 TIF> >0x0D TIF> >0x28 TIF> >0x0D TIF> >0x21 TIF> >0x0D TIF> >0x21 TIF> >0x0D TIF> >0x21 TIF>AP-IDR: 0x24770011, Type: AHB-AP
 >0x0D TIF> >0x28 TIF> >0x0D TIF> >0x28 TIF> >0x0D TIF> >0x28 TIF> >0x0D TIF> >0x21 TIF> >0x0D TIF> >0x21 TIF> >0x0D TIF> >0x28 TIF> >0x0D TIF> >0x21 TIF> >0x0D TIF> >0x21 TIF>Found Cortex-M4 r0p1, Little endian. -- CPU_ReadMem(4 bytes @ 0xE000EDF0) -- CPU_WriteMem(4 bytes @ 0xE000EDF0) -- CPU_ReadMem(4 bytes @ 0xE0002000)FPUnit: 6 code (BP) slots and 2 literal slots -- CPU_ReadMem(4 bytes @ 0xE000EDFC) -- CPU_WriteMem(4 bytes @ 0xE000EDFC) -- CPU_ReadMem(4 bytes @ 0xE0001000)
 -- CPU_WriteMem(4 bytes @ 0xE0001000) -- CPU_ReadMem(4 bytes @ 0xE000ED88) -- CPU_WriteMem(4 bytes @ 0xE000ED88) -- CPU_ReadMem(4 bytes @ 0xE000ED88) -- CPU_WriteMem(4 bytes @ 0xE000ED88)CoreSight components:ROMTbl 0 @ E00FF000 -- CPU_ReadMem(16 bytes @ 0xE00FF000) -- CPU_ReadMem(16 bytes @ 0xE000EFF0) -- CPU_ReadMem(16 bytes @ 0xE000EFE0)ROMTbl 0 [0]: FFF0F000, CID: B105E00D, PID: 000BB00C SCS -- CPU_ReadMem(16 bytes @ 0xE0001FF0) -- CPU_ReadMem(16 bytes @ 0xE0001FE0)
ROMTbl 0 [1]: FFF02000, CID: B105E00D, PID: 003BB002 DWT -- CPU_ReadMem(16 bytes @ 0xE0002FF0) -- CPU_ReadMem(16 bytes @ 0xE0002FE0)ROMTbl 0 [2]: FFF03000, CID: B105E00D, PID: 002BB003 FPB -- CPU_ReadMem(16 bytes @ 0xE0000FF0) -- CPU_ReadMem(16 bytes @ 0xE0000FE0)ROMTbl 0 [3]: FFF01000, CID: B105E00D, PID: 003BB001 ITM -- CPU_ReadMem(16 bytes @ 0xE00FF010) -- CPU_ReadMem(16 bytes @ 0xE0040FF0) -- CPU_ReadMem(16 bytes @ 0xE0040FE0)ROMTbl 0 [4]: FFF41000, CID: B105900D, PID: 000BB9A1 TPIU
 -- CPU_ReadMem(16 bytes @ 0xE0041FF0) -- CPU_ReadMem(16 bytes @ 0xE0041FE0)ROMTbl 0 [5]: FFF42000, CID: B105900D, PID: 000BB925 ETM >0x0D TIF> >0x21 TIF>  returns 0x2BA01477 (0120ms, 0379ms total)
T2FF4 000:529 JLINK_GetDLLVersion()  returns 61009 (0000ms, 0379ms total)
T2FF4 000:529 JLINK_CORE_GetFound()  returns 0xE0000FF (0000ms, 0379ms total)
T2FF4 000:529 JLINK_GetDebugInfo(0x100) -- Value=0xE00FF000  returns 0x00 (0000ms, 0379ms total)
T2FF4 000:531 JLINK_GetDebugInfo(0x100) -- Value=0xE00FF000  returns 0x00 (0000ms, 0379ms total)
T2FF4 000:531 JLINK_GetDebugInfo(0x101) -- Value=0xE0041000  returns 0x00 (0000ms, 0379ms total)
T2FF4 000:531 JLINK_GetDebugInfo(0x102) -- Value=0x00000000  returns 0x00 (0000ms, 0379ms total)
T2FF4 000:531 JLINK_GetDebugInfo(0x103) -- Value=0xE0040000  returns 0x00 (0000ms, 0379ms total)
T2FF4 000:531 JLINK_GetDebugInfo(0x104) -- Value=0xE0000000  returns 0x00 (0000ms, 0379ms total)
T2FF4 000:531 JLINK_GetDebugInfo(0x105) -- Value=0xE0001000  returns 0x00 (0000ms, 0379ms total)
T2FF4 000:531 JLINK_GetDebugInfo(0x106) -- Value=0xE0002000  returns 0x00 (0000ms, 0379ms total)
T2FF4 000:531 JLINK_GetDebugInfo(0x107) -- Value=0xE000E000  returns 0x00 (0000ms, 0379ms total)
T2FF4 000:531 JLINK_GetDebugInfo(0x10C) -- Value=0xE000EDF0  returns 0x00 (0000ms, 0379ms total)
T2FF4 000:531 JLINK_ReadMemU32(0xE000EF40, 0x0001 Items, ...) -- CPU is running -- CPU_ReadMem(4 bytes @ 0xE000EF40) - Data: 21 00 11 10  returns 0x01 (0001ms, 0380ms total)
T2FF4 000:532 JLINK_ReadMemU32(0xE000EF44, 0x0001 Items, ...) -- CPU is running -- CPU_ReadMem(4 bytes @ 0xE000EF44) - Data: 11 00 00 11  returns 0x01 (0001ms, 0381ms total)
T2FF4 000:533 JLINK_ReadMemU32(0xE000ED00, 0x0001 Items, ...) -- CPU is running -- CPU_ReadMem(4 bytes @ 0xE000ED00) - Data: 41 C2 0F 41  returns 0x01 (0000ms, 0381ms total)
T2FF4 000:533 JLINK_SetResetType(JLINKARM_RESET_TYPE_NORMAL)  returns JLINKARM_RESET_TYPE_NORMAL (0000ms, 0381ms total)
T2FF4 000:533 JLINK_Reset() -- CPU is running -- CPU_WriteMem(4 bytes @ 0xE000EDF0) -- CPU is running -- CPU_WriteMem(4 bytes @ 0xE000EDFC) >0x35 TIF> -- CPU is running -- CPU_WriteMem(4 bytes @ 0xE000ED0C) -- CPU is running -- CPU_ReadMem(4 bytes @ 0xE000EDF0) -- CPU is running -- CPU_ReadMem(4 bytes @ 0xE000EDF0) -- CPU is running -- CPU_WriteMem(4 bytes @ 0xE000EDF0) -- CPU is running -- CPU_WriteMem(4 bytes @ 0xE000EDFC) -- CPU is running -- CPU_ReadMem(4 bytes @ 0xE000EDF0)
 -- CPU_WriteMem(4 bytes @ 0xE0002000) -- CPU_ReadMem(4 bytes @ 0xE000EDFC) -- CPU_ReadMem(4 bytes @ 0xE0001000) (0023ms, 0404ms total)
T2FF4 000:556 JLINK_Halt()  returns 0x00 (0000ms, 0404ms total)
T2FF4 000:556 JLINK_IsHalted()  returns TRUE (0000ms, 0404ms total)
T2FF4 000:556 JLINK_ReadMemU32(0xE000EDF0, 0x0001 Items, ...) -- CPU_ReadMem(4 bytes @ 0xE000EDF0) - Data: 03 00 03 00  returns 0x01 (0001ms, 0405ms total)
T2FF4 000:557 JLINK_WriteU32(0xE000EDF0, 0xA05F0003) -- CPU_WriteMem(4 bytes @ 0xE000EDF0)  returns 0x00 (0001ms, 0406ms total)
T2FF4 000:558 JLINK_WriteU32(0xE000EDFC, 0x01000000) -- CPU_WriteMem(4 bytes @ 0xE000EDFC)  returns 0x00 (0001ms, 0407ms total)
T2FF4 000:571 JLINK_GetHWStatus(...)  returns 0x00 (0000ms, 0407ms total)
T2FF4 000:577 JLINK_GetNumBPUnits(Type = 0xFFFFFF00)  returns 0x06 (0000ms, 0407ms total)
T2FF4 000:577 JLINK_GetNumBPUnits(Type = 0xF0)  returns 0x2000 (0000ms, 0407ms total)
T2FF4 000:577 JLINK_GetNumWPUnits()  returns 0x04 (0000ms, 0407ms total)
T2FF4 000:591 JLINK_GetSpeed()  returns 0xFA0 (0000ms, 0407ms total)
T2FF4 000:595 JLINK_ReadMemU32(0xE000E004, 0x0001 Items, ...) -- CPU_ReadMem(4 bytes @ 0xE000E004) - Data: 02 00 00 00  returns 0x01 (0001ms, 0408ms total)
T2FF4 000:596 JLINK_ReadMemU32(0xE000E004, 0x0001 Items, ...) -- CPU_ReadMem(4 bytes @ 0xE000E004) - Data: 02 00 00 00  returns 0x01 (0001ms, 0409ms total)
T2FF4 000:597 JLINK_WriteMem(0xE0001000, 0x001C Bytes, ...) - Data: 01 00 00 00 00 00 00 00 00 00 00 00 00 00 00 00 ... -- CPU_WriteMem(28 bytes @ 0xE0001000)  returns 0x1C (0001ms, 0410ms total)
T2FF4 000:598 JLINK_ReadMem (0xE0001000, 0x001C Bytes, ...) -- CPU_ReadMem(28 bytes @ 0xE0001000) - Data: 01 00 00 40 00 00 00 00 00 00 00 00 00 00 00 00 ...  returns 0x00 (0001ms, 0411ms total)
T2FF4 000:599 JLINK_Halt()  returns 0x00 (0000ms, 0411ms total)
T2FF4 000:599 JLINK_IsHalted()  returns TRUE (0000ms, 0411ms total)
T2FF4 000:602 JLINK_WriteMem(0x20000000, 0x0180 Bytes, ...) - Data: 00 BE 0A E0 0D 78 2D 06 68 40 08 24 40 00 00 D3 ... -- CPU_WriteMem(384 bytes @ 0x20000000)  returns 0x180 (0006ms, 0417ms total)
T2FF4 000:609 JLINK_WriteReg(R0, 0x08000000)  returns 0x00 (0000ms, 0417ms total)
T2FF4 000:609 JLINK_WriteReg(R1, 0x0A037A00)  returns 0x00 (0000ms, 0417ms total)
T2FF4 000:609 JLINK_WriteReg(R2, 0x00000001)  returns 0x00 (0000ms, 0417ms total)
T2FF4 000:609 JLINK_WriteReg(R3, 0x00000000)  returns 0x00 (0000ms, 0417ms total)
T2FF4 000:609 JLINK_WriteReg(R4, 0x00000000)  returns 0x00 (0000ms, 0417ms total)
T2FF4 000:609 JLINK_WriteReg(R5, 0x00000000)  returns 0x00 (0000ms, 0417ms total)
T2FF4 000:609 JLINK_WriteReg(R6, 0x00000000)  returns 0x00 (0000ms, 0417ms total)
T2FF4 000:609 JLINK_WriteReg(R7, 0x00000000)  returns 0x00 (0000ms, 0417ms total)
T2FF4 000:609 JLINK_WriteReg(R8, 0x00000000)  returns 0x00 (0000ms, 0417ms total)
T2FF4 000:609 JLINK_WriteReg(R9, 0x2000017C)  returns 0x00 (0000ms, 0417ms total)
T2FF4 000:609 JLINK_WriteReg(R10, 0x00000000)  returns 0x00 (0000ms, 0417ms total)
T2FF4 000:609 JLINK_WriteReg(R11, 0x00000000)  returns 0x00 (0000ms, 0417ms total)
T2FF4 000:609 JLINK_WriteReg(R12, 0x00000000)  returns 0x00 (0000ms, 0417ms total)
T2FF4 000:609 JLINK_WriteReg(R13 (SP), 0x20001000)  returns 0x00 (0000ms, 0417ms total)
T2FF4 000:609 JLINK_WriteReg(R14, 0x20000001)  returns 0x00 (0000ms, 0417ms total)
T2FF4 000:609 JLINK_WriteReg(R15 (PC), 0x20000054)  returns 0x00 (0000ms, 0417ms total)
T2FF4 000:609 JLINK_WriteReg(XPSR, 0x01000000)  returns 0x00 (0000ms, 0417ms total)
T2FF4 000:609 JLINK_WriteReg(MSP, 0x20001000)  returns 0x00 (0000ms, 0417ms total)
T2FF4 000:609 JLINK_WriteReg(PSP, 0x20001000)  returns 0x00 (0000ms, 0417ms total)
T2FF4 000:609 JLINK_WriteReg(CFBP, 0x00000000)  returns 0x00 (0000ms, 0417ms total)
T2FF4 000:609 JLINK_SetBPEx(Addr = 0x20000000, Type = 0xFFFFFFF2) -- CPU_ReadMem(2 bytes @ 0x20000000)  returns 0x00000001 (0001ms, 0418ms total)
T2FF4 000:610 JLINK_Go() -- CPU_WriteMem(2 bytes @ 0x20000000) -- CPU_ReadMem(4 bytes @ 0xE0001000) -- CPU_WriteMem(4 bytes @ 0xE0002008) -- CPU_WriteMem(4 bytes @ 0xE000200C) -- CPU_WriteMem(4 bytes @ 0xE0002010) -- CPU_WriteMem(4 bytes @ 0xE0002014) -- CPU_WriteMem(4 bytes @ 0xE0002018) -- CPU_WriteMem(4 bytes @ 0xE000201C) -- CPU_WriteMem(4 bytes @ 0xE0001004) (0007ms, 0425ms total)
T2FF4 000:617 JLINK_IsHalted() -- CPU_ReadMem(2 bytes @ 0x20000000)  returns TRUE (0004ms, 0429ms total)
T2FF4 000:621 JLINK_ReadReg(R15 (PC))  returns 0x20000000 (0000ms, 0425ms total)
T2FF4 000:621 JLINK_ClrBPEx(BPHandle = 0x00000001)  returns 0x00 (0000ms, 0425ms total)
T2FF4 000:621 JLINK_ReadReg(R0)  returns 0x00000000 (0000ms, 0425ms total)
T2FF4 000:622 JLINK_WriteReg(R0, 0x08000000)  returns 0x00 (0000ms, 0425ms total)
T2FF4 000:622 JLINK_WriteReg(R1, 0x00004000)  returns 0x00 (0000ms, 0425ms total)
T2FF4 000:622 JLINK_WriteReg(R2, 0x000000FF)  returns 0x00 (0000ms, 0425ms total)
T2FF4 000:622 JLINK_WriteReg(R3, 0x00000000)  returns 0x00 (0000ms, 0425ms total)
T2FF4 000:622 JLINK_WriteReg(R4, 0x00000000)  returns 0x00 (0000ms, 0425ms total)
T2FF4 000:622 JLINK_WriteReg(R5, 0x00000000)  returns 0x00 (0000ms, 0425ms total)
T2FF4 000:622 JLINK_WriteReg(R6, 0x00000000)  returns 0x00 (0000ms, 0425ms total)
T2FF4 000:622 JLINK_WriteReg(R7, 0x00000000)  returns 0x00 (0000ms, 0425ms total)
T2FF4 000:622 JLINK_WriteReg(R8, 0x00000000)  returns 0x00 (0000ms, 0425ms total)
T2FF4 000:622 JLINK_WriteReg(R9, 0x2000017C)  returns 0x00 (0000ms, 0425ms total)
T2FF4 000:622 JLINK_WriteReg(R10, 0x00000000)  returns 0x00 (0000ms, 0425ms total)
T2FF4 000:622 JLINK_WriteReg(R11, 0x00000000)  returns 0x00 (0000ms, 0425ms total)
T2FF4 000:622 JLINK_WriteReg(R12, 0x00000000)  returns 0x00 (0000ms, 0425ms total)
T2FF4 000:622 JLINK_WriteReg(R13 (SP), 0x20001000)  returns 0x00 (0000ms, 0425ms total)
T2FF4 000:622 JLINK_WriteReg(R14, 0x20000001)  returns 0x00 (0000ms, 0425ms total)
T2FF4 000:622 JLINK_WriteReg(R15 (PC), 0x20000020)  returns 0x00 (0000ms, 0425ms total)
T2FF4 000:622 JLINK_WriteReg(XPSR, 0x01000000)  returns 0x00 (0000ms, 0425ms total)
T2FF4 000:622 JLINK_WriteReg(MSP, 0x20001000)  returns 0x00 (0000ms, 0425ms total)
T2FF4 000:622 JLINK_WriteReg(PSP, 0x20001000)  returns 0x00 (0000ms, 0425ms total)
T2FF4 000:622 JLINK_WriteReg(CFBP, 0x00000000)  returns 0x00 (0000ms, 0425ms total)
T2FF4 000:622 JLINK_SetBPEx(Addr = 0x20000000, Type = 0xFFFFFFF2)  returns 0x00000002 (0000ms, 0425ms total)
T2FF4 000:622 JLINK_Go() -- CPU_ReadMem(4 bytes @ 0xE0001000) (0003ms, 0428ms total)
T2FF4 000:625 JLINK_IsHalted()  returns FALSE (0001ms, 0429ms total)
T2FF4 000:721 JLINK_IsHalted() -- CPU_ReadMem(2 bytes @ 0x20000000)  returns TRUE (0004ms, 0432ms total)
T2FF4 000:725 JLINK_ReadReg(R15 (PC))  returns 0x20000000 (0000ms, 0428ms total)
T2FF4 000:725 JLINK_ClrBPEx(BPHandle = 0x00000002)  returns 0x00 (0000ms, 0428ms total)
T2FF4 000:725 JLINK_ReadReg(R0)  returns 0x00000000 (0000ms, 0428ms total)
T2FF4 000:725 JLINK_WriteReg(R0, 0x08004000)  returns 0x00 (0000ms, 0428ms total)
T2FF4 000:725 JLINK_WriteReg(R1, 0x00004000)  returns 0x00 (0000ms, 0428ms total)
T2FF4 000:725 JLINK_WriteReg(R2, 0x000000FF)  returns 0x00 (0000ms, 0428ms total)
T2FF4 000:725 JLINK_WriteReg(R3, 0x00000000)  returns 0x00 (0000ms, 0428ms total)
T2FF4 000:725 JLINK_WriteReg(R4, 0x00000000)  returns 0x00 (0000ms, 0428ms total)
T2FF4 000:725 JLINK_WriteReg(R5, 0x00000000)  returns 0x00 (0000ms, 0428ms total)
T2FF4 000:725 JLINK_WriteReg(R6, 0x00000000)  returns 0x00 (0001ms, 0429ms total)
T2FF4 000:726 JLINK_WriteReg(R7, 0x00000000)  returns 0x00 (0000ms, 0429ms total)
T2FF4 000:726 JLINK_WriteReg(R8, 0x00000000)  returns 0x00 (0000ms, 0429ms total)
T2FF4 000:726 JLINK_WriteReg(R9, 0x2000017C)  returns 0x00 (0000ms, 0429ms total)
T2FF4 000:726 JLINK_WriteReg(R10, 0x00000000)  returns 0x00 (0000ms, 0429ms total)
T2FF4 000:726 JLINK_WriteReg(R11, 0x00000000)  returns 0x00 (0000ms, 0429ms total)
T2FF4 000:726 JLINK_WriteReg(R12, 0x00000000)  returns 0x00 (0000ms, 0429ms total)
T2FF4 000:726 JLINK_WriteReg(R13 (SP), 0x20001000)  returns 0x00 (0000ms, 0429ms total)
T2FF4 000:726 JLINK_WriteReg(R14, 0x20000001)  returns 0x00 (0000ms, 0429ms total)
T2FF4 000:726 JLINK_WriteReg(R15 (PC), 0x20000020)  returns 0x00 (0000ms, 0429ms total)
T2FF4 000:726 JLINK_WriteReg(XPSR, 0x01000000)  returns 0x00 (0000ms, 0429ms total)
T2FF4 000:726 JLINK_WriteReg(MSP, 0x20001000)  returns 0x00 (0000ms, 0429ms total)
T2FF4 000:726 JLINK_WriteReg(PSP, 0x20001000)  returns 0x00 (0000ms, 0429ms total)
T2FF4 000:726 JLINK_WriteReg(CFBP, 0x00000000)  returns 0x00 (0000ms, 0429ms total)
T2FF4 000:726 JLINK_SetBPEx(Addr = 0x20000000, Type = 0xFFFFFFF2)  returns 0x00000003 (0000ms, 0429ms total)
T2FF4 000:726 JLINK_Go() -- CPU_ReadMem(4 bytes @ 0xE0001000) (0003ms, 0432ms total)
T2FF4 000:729 JLINK_IsHalted()  returns FALSE (0001ms, 0433ms total)
T2FF4 000:731 JLINK_IsHalted()  returns FALSE (0000ms, 0432ms total)
T2FF4 000:733 JLINK_IsHalted()  returns FALSE (0000ms, 0432ms total)
T2FF4 000:735 JLINK_IsHalted()  returns FALSE (0000ms, 0432ms total)
T2FF4 000:737 JLINK_IsHalted()  returns FALSE (0000ms, 0432ms total)
T2FF4 000:739 JLINK_IsHalted()  returns FALSE (0000ms, 0432ms total)
T2FF4 000:745 JLINK_IsHalted() -- CPU_ReadMem(2 bytes @ 0x20000000)  returns TRUE (0004ms, 0436ms total)
T2FF4 000:749 JLINK_ReadReg(R15 (PC))  returns 0x20000000 (0000ms, 0432ms total)
T2FF4 000:749 JLINK_ClrBPEx(BPHandle = 0x00000003)  returns 0x00 (0000ms, 0432ms total)
T2FF4 000:749 JLINK_ReadReg(R0)  returns 0x00000000 (0000ms, 0432ms total)
T2FF4 000:749 JLINK_WriteReg(R0, 0x00000001)  returns 0x00 (0000ms, 0432ms total)
T2FF4 000:749 JLINK_WriteReg(R1, 0x00004000)  returns 0x00 (0001ms, 0433ms total)
T2FF4 000:750 JLINK_WriteReg(R2, 0x000000FF)  returns 0x00 (0000ms, 0433ms total)
T2FF4 000:750 JLINK_WriteReg(R3, 0x00000000)  returns 0x00 (0000ms, 0433ms total)
T2FF4 000:750 JLINK_WriteReg(R4, 0x00000000)  returns 0x00 (0000ms, 0433ms total)
T2FF4 000:750 JLINK_WriteReg(R5, 0x00000000)  returns 0x00 (0000ms, 0433ms total)
T2FF4 000:750 JLINK_WriteReg(R6, 0x00000000)  returns 0x00 (0000ms, 0433ms total)
T2FF4 000:750 JLINK_WriteReg(R7, 0x00000000)  returns 0x00 (0000ms, 0433ms total)
T2FF4 000:750 JLINK_WriteReg(R8, 0x00000000)  returns 0x00 (0000ms, 0433ms total)
T2FF4 000:750 JLINK_WriteReg(R9, 0x2000017C)  returns 0x00 (0000ms, 0433ms total)
T2FF4 000:750 JLINK_WriteReg(R10, 0x00000000)  returns 0x00 (0000ms, 0433ms total)
T2FF4 000:750 JLINK_WriteReg(R11, 0x00000000)  returns 0x00 (0000ms, 0433ms total)
T2FF4 000:750 JLINK_WriteReg(R12, 0x00000000)  returns 0x00 (0000ms, 0433ms total)
T2FF4 000:750 JLINK_WriteReg(R13 (SP), 0x20001000)  returns 0x00 (0000ms, 0433ms total)
T2FF4 000:750 JLINK_WriteReg(R14, 0x20000001)  returns 0x00 (0000ms, 0433ms total)
T2FF4 000:750 JLINK_WriteReg(R15 (PC), 0x20000082)  returns 0x00 (0000ms, 0433ms total)
T2FF4 000:750 JLINK_WriteReg(XPSR, 0x01000000)  returns 0x00 (0000ms, 0433ms total)
T2FF4 000:750 JLINK_WriteReg(MSP, 0x20001000)  returns 0x00 (0000ms, 0433ms total)
T2FF4 000:750 JLINK_WriteReg(PSP, 0x20001000)  returns 0x00 (0000ms, 0433ms total)
T2FF4 000:750 JLINK_WriteReg(CFBP, 0x00000000)  returns 0x00 (0000ms, 0433ms total)
T2FF4 000:750 JLINK_SetBPEx(Addr = 0x20000000, Type = 0xFFFFFFF2)  returns 0x00000004 (0000ms, 0433ms total)
T2FF4 000:750 JLINK_Go() -- CPU_ReadMem(4 bytes @ 0xE0001000) (0003ms, 0436ms total)
T2FF4 000:753 JLINK_IsHalted() -- CPU_ReadMem(2 bytes @ 0x20000000)  returns TRUE (0004ms, 0440ms total)
T2FF4 000:757 JLINK_ReadReg(R15 (PC))  returns 0x20000000 (0000ms, 0436ms total)
T2FF4 000:757 JLINK_ClrBPEx(BPHandle = 0x00000004)  returns 0x00 (0000ms, 0436ms total)
T2FF4 000:757 JLINK_ReadReg(R0)  returns 0x00000000 (0000ms, 0436ms total)
T2FF4 000:814 JLINK_WriteMem(0x20000000, 0x0180 Bytes, ...) - Data: 00 BE 0A E0 0D 78 2D 06 68 40 08 24 40 00 00 D3 ... -- CPU_WriteMem(384 bytes @ 0x20000000)  returns 0x180 (0005ms, 0441ms total)
T2FF4 000:819 JLINK_WriteReg(R0, 0x08000000)  returns 0x00 (0000ms, 0441ms total)
T2FF4 000:819 JLINK_WriteReg(R1, 0x0A037A00)  returns 0x00 (0000ms, 0441ms total)
T2FF4 000:819 JLINK_WriteReg(R2, 0x00000002)  returns 0x00 (0000ms, 0441ms total)
T2FF4 000:819 JLINK_WriteReg(R3, 0x00000000)  returns 0x00 (0000ms, 0441ms total)
T2FF4 000:819 JLINK_WriteReg(R4, 0x00000000)  returns 0x00 (0000ms, 0441ms total)
T2FF4 000:819 JLINK_WriteReg(R5, 0x00000000)  returns 0x00 (0000ms, 0441ms total)
T2FF4 000:819 JLINK_WriteReg(R6, 0x00000000)  returns 0x00 (0000ms, 0441ms total)
T2FF4 000:819 JLINK_WriteReg(R7, 0x00000000)  returns 0x00 (0000ms, 0441ms total)
T2FF4 000:819 JLINK_WriteReg(R8, 0x00000000)  returns 0x00 (0000ms, 0441ms total)
T2FF4 000:819 JLINK_WriteReg(R9, 0x2000017C)  returns 0x00 (0000ms, 0441ms total)
T2FF4 000:819 JLINK_WriteReg(R10, 0x00000000)  returns 0x00 (0000ms, 0441ms total)
T2FF4 000:819 JLINK_WriteReg(R11, 0x00000000)  returns 0x00 (0000ms, 0441ms total)
T2FF4 000:819 JLINK_WriteReg(R12, 0x00000000)  returns 0x00 (0000ms, 0441ms total)
T2FF4 000:819 JLINK_WriteReg(R13 (SP), 0x20001000)  returns 0x00 (0000ms, 0441ms total)
T2FF4 000:819 JLINK_WriteReg(R14, 0x20000001)  returns 0x00 (0000ms, 0441ms total)
T2FF4 000:819 JLINK_WriteReg(R15 (PC), 0x20000054)  returns 0x00 (0000ms, 0441ms total)
T2FF4 000:819 JLINK_WriteReg(XPSR, 0x01000000)  returns 0x00 (0000ms, 0441ms total)
T2FF4 000:819 JLINK_WriteReg(MSP, 0x20001000)  returns 0x00 (0000ms, 0441ms total)
T2FF4 000:819 JLINK_WriteReg(PSP, 0x20001000)  returns 0x00 (0000ms, 0441ms total)
T2FF4 000:819 JLINK_WriteReg(CFBP, 0x00000000)  returns 0x00 (0000ms, 0441ms total)
T2FF4 000:819 JLINK_SetBPEx(Addr = 0x20000000, Type = 0xFFFFFFF2) -- CPU_ReadMem(2 bytes @ 0x20000000)  returns 0x00000005 (0001ms, 0442ms total)
T2FF4 000:820 JLINK_Go() -- CPU_WriteMem(2 bytes @ 0x20000000) -- CPU_ReadMem(4 bytes @ 0xE0001000) (0004ms, 0446ms total)
T2FF4 000:824 JLINK_IsHalted() -- CPU_ReadMem(2 bytes @ 0x20000000)  returns TRUE (0004ms, 0450ms total)
T2FF4 000:828 JLINK_ReadReg(R15 (PC))  returns 0x20000000 (0000ms, 0446ms total)
T2FF4 000:828 JLINK_ClrBPEx(BPHandle = 0x00000005)  returns 0x00 (0000ms, 0446ms total)
T2FF4 000:828 JLINK_ReadReg(R0)  returns 0x00000000 (0000ms, 0446ms total)
T2FF4 000:828 JLINK_WriteMem(0x20000180, 0x0400 Bytes, ...) - Data: E8 21 00 20 9D 01 00 08 27 48 00 08 B7 3F 00 08 ... -- CPU_WriteMem(1024 bytes @ 0x20000180)  returns 0x400 (0013ms, 0459ms total)
T2FF4 000:841 JLINK_WriteReg(R0, 0x08000000)  returns 0x00 (0000ms, 0459ms total)
T2FF4 000:841 JLINK_WriteReg(R1, 0x00000400)  returns 0x00 (0000ms, 0459ms total)
T2FF4 000:841 JLINK_WriteReg(R2, 0x20000180)  returns 0x00 (0000ms, 0459ms total)
T2FF4 000:841 JLINK_WriteReg(R3, 0x00000000)  returns 0x00 (0000ms, 0459ms total)
T2FF4 000:841 JLINK_WriteReg(R4, 0x00000000)  returns 0x00 (0000ms, 0459ms total)
T2FF4 000:841 JLINK_WriteReg(R5, 0x00000000)  returns 0x00 (0000ms, 0459ms total)
T2FF4 000:841 JLINK_WriteReg(R6, 0x00000000)  returns 0x00 (0000ms, 0459ms total)
T2FF4 000:841 JLINK_WriteReg(R7, 0x00000000)  returns 0x00 (0000ms, 0459ms total)
T2FF4 000:841 JLINK_WriteReg(R8, 0x00000000)  returns 0x00 (0000ms, 0459ms total)
T2FF4 000:841 JLINK_WriteReg(R9, 0x2000017C)  returns 0x00 (0000ms, 0459ms total)
T2FF4 000:841 JLINK_WriteReg(R10, 0x00000000)  returns 0x00 (0000ms, 0459ms total)
T2FF4 000:841 JLINK_WriteReg(R11, 0x00000000)  returns 0x00 (0000ms, 0459ms total)
T2FF4 000:841 JLINK_WriteReg(R12, 0x00000000)  returns 0x00 (0000ms, 0459ms total)
T2FF4 000:841 JLINK_WriteReg(R13 (SP), 0x20001000)  returns 0x00 (0000ms, 0459ms total)
T2FF4 000:841 JLINK_WriteReg(R14, 0x20000001)  returns 0x00 (0000ms, 0459ms total)
T2FF4 000:841 JLINK_WriteReg(R15 (PC), 0x20000108)  returns 0x00 (0000ms, 0459ms total)
T2FF4 000:841 JLINK_WriteReg(XPSR, 0x01000000)  returns 0x00 (0000ms, 0459ms total)
T2FF4 000:841 JLINK_WriteReg(MSP, 0x20001000)  returns 0x00 (0000ms, 0459ms total)
T2FF4 000:841 JLINK_WriteReg(PSP, 0x20001000)  returns 0x00 (0000ms, 0459ms total)
T2FF4 000:841 JLINK_WriteReg(CFBP, 0x00000000)  returns 0x00 (0000ms, 0459ms total)
T2FF4 000:841 JLINK_SetBPEx(Addr = 0x20000000, Type = 0xFFFFFFF2)  returns 0x00000006 (0000ms, 0459ms total)
T2FF4 000:841 JLINK_Go() -- CPU_ReadMem(4 bytes @ 0xE0001000) (0004ms, 0463ms total)
T2FF4 000:845 JLINK_IsHalted()  returns FALSE (0000ms, 0463ms total)
T2FF4 000:851 JLINK_IsHalted() -- CPU_ReadMem(2 bytes @ 0x20000000)  returns TRUE (0004ms, 0467ms total)
T2FF4 000:855 JLINK_ReadReg(R15 (PC))  returns 0x20000000 (0000ms, 0463ms total)
T2FF4 000:855 JLINK_ClrBPEx(BPHandle = 0x00000006)  returns 0x00 (0000ms, 0463ms total)
T2FF4 000:855 JLINK_ReadReg(R0)  returns 0x00000000 (0000ms, 0463ms total)
T2FF4 000:856 JLINK_WriteMem(0x20000180, 0x0400 Bytes, ...) - Data: 2E 2E 2F 44 72 69 76 65 72 73 2F 53 54 4D 33 32 ... -- CPU_WriteMem(1024 bytes @ 0x20000180)  returns 0x400 (0012ms, 0475ms total)
T2FF4 000:868 JLINK_WriteReg(R0, 0x08000400)  returns 0x00 (0000ms, 0475ms total)
T2FF4 000:868 JLINK_WriteReg(R1, 0x00000400)  returns 0x00 (0000ms, 0475ms total)
T2FF4 000:868 JLINK_WriteReg(R2, 0x20000180)  returns 0x00 (0000ms, 0475ms total)
T2FF4 000:868 JLINK_WriteReg(R3, 0x00000000)  returns 0x00 (0000ms, 0475ms total)
T2FF4 000:868 JLINK_WriteReg(R4, 0x00000000)  returns 0x00 (0000ms, 0475ms total)
T2FF4 000:868 JLINK_WriteReg(R5, 0x00000000)  returns 0x00 (0000ms, 0475ms total)
T2FF4 000:868 JLINK_WriteReg(R6, 0x00000000)  returns 0x00 (0000ms, 0475ms total)
T2FF4 000:868 JLINK_WriteReg(R7, 0x00000000)  returns 0x00 (0000ms, 0475ms total)
T2FF4 000:868 JLINK_WriteReg(R8, 0x00000000)  returns 0x00 (0000ms, 0475ms total)
T2FF4 000:868 JLINK_WriteReg(R9, 0x2000017C)  returns 0x00 (0000ms, 0475ms total)
T2FF4 000:869 JLINK_WriteReg(R10, 0x00000000)  returns 0x00 (0000ms, 0475ms total)
T2FF4 000:869 JLINK_WriteReg(R11, 0x00000000)  returns 0x00 (0000ms, 0475ms total)
T2FF4 000:869 JLINK_WriteReg(R12, 0x00000000)  returns 0x00 (0000ms, 0475ms total)
T2FF4 000:869 JLINK_WriteReg(R13 (SP), 0x20001000)  returns 0x00 (0000ms, 0475ms total)
T2FF4 000:869 JLINK_WriteReg(R14, 0x20000001)  returns 0x00 (0000ms, 0475ms total)
T2FF4 000:869 JLINK_WriteReg(R15 (PC), 0x20000108)  returns 0x00 (0000ms, 0475ms total)
T2FF4 000:869 JLINK_WriteReg(XPSR, 0x01000000)  returns 0x00 (0000ms, 0475ms total)
T2FF4 000:869 JLINK_WriteReg(MSP, 0x20001000)  returns 0x00 (0000ms, 0475ms total)
T2FF4 000:869 JLINK_WriteReg(PSP, 0x20001000)  returns 0x00 (0000ms, 0475ms total)
T2FF4 000:869 JLINK_WriteReg(CFBP, 0x00000000)  returns 0x00 (0000ms, 0475ms total)
T2FF4 000:869 JLINK_SetBPEx(Addr = 0x20000000, Type = 0xFFFFFFF2)  returns 0x00000007 (0000ms, 0475ms total)
T2FF4 000:869 JLINK_Go() -- CPU_ReadMem(4 bytes @ 0xE0001000) (0003ms, 0478ms total)
T2FF4 000:872 JLINK_IsHalted()  returns FALSE (0001ms, 0479ms total)
T2FF4 000:876 JLINK_IsHalted()  returns FALSE (0000ms, 0478ms total)
T2FF4 000:878 JLINK_IsHalted() -- CPU_ReadMem(2 bytes @ 0x20000000)  returns TRUE (0004ms, 0482ms total)
T2FF4 000:882 JLINK_ReadReg(R15 (PC))  returns 0x20000000 (0000ms, 0478ms total)
T2FF4 000:882 JLINK_ClrBPEx(BPHandle = 0x00000007)  returns 0x00 (0000ms, 0478ms total)
T2FF4 000:882 JLINK_ReadReg(R0)  returns 0x00000000 (0000ms, 0478ms total)
T2FF4 000:884 JLINK_WriteMem(0x20000180, 0x0400 Bytes, ...) - Data: 07 F0 44 F8 E0 68 48 B1 B0 F5 00 6F 06 D0 00 E0 ... -- CPU_WriteMem(1024 bytes @ 0x20000180)  returns 0x400 (0012ms, 0490ms total)
T2FF4 000:896 JLINK_WriteReg(R0, 0x08000800)  returns 0x00 (0000ms, 0490ms total)
T2FF4 000:896 JLINK_WriteReg(R1, 0x00000400)  returns 0x00 (0000ms, 0490ms total)
T2FF4 000:896 JLINK_WriteReg(R2, 0x20000180)  returns 0x00 (0001ms, 0491ms total)
T2FF4 000:897 JLINK_WriteReg(R3, 0x00000000)  returns 0x00 (0000ms, 0491ms total)
T2FF4 000:897 JLINK_WriteReg(R4, 0x00000000)  returns 0x00 (0000ms, 0491ms total)
T2FF4 000:897 JLINK_WriteReg(R5, 0x00000000)  returns 0x00 (0000ms, 0491ms total)
T2FF4 000:897 JLINK_WriteReg(R6, 0x00000000)  returns 0x00 (0000ms, 0491ms total)
T2FF4 000:897 JLINK_WriteReg(R7, 0x00000000)  returns 0x00 (0000ms, 0491ms total)
T2FF4 000:897 JLINK_WriteReg(R8, 0x00000000)  returns 0x00 (0000ms, 0491ms total)
T2FF4 000:897 JLINK_WriteReg(R9, 0x2000017C)  returns 0x00 (0000ms, 0491ms total)
T2FF4 000:897 JLINK_WriteReg(R10, 0x00000000)  returns 0x00 (0000ms, 0491ms total)
T2FF4 000:897 JLINK_WriteReg(R11, 0x00000000)  returns 0x00 (0000ms, 0491ms total)
T2FF4 000:897 JLINK_WriteReg(R12, 0x00000000)  returns 0x00 (0000ms, 0491ms total)
T2FF4 000:897 JLINK_WriteReg(R13 (SP), 0x20001000)  returns 0x00 (0000ms, 0491ms total)
T2FF4 000:897 JLINK_WriteReg(R14, 0x20000001)  returns 0x00 (0000ms, 0491ms total)
T2FF4 000:897 JLINK_WriteReg(R15 (PC), 0x20000108)  returns 0x00 (0000ms, 0491ms total)
T2FF4 000:897 JLINK_WriteReg(XPSR, 0x01000000)  returns 0x00 (0000ms, 0491ms total)
T2FF4 000:897 JLINK_WriteReg(MSP, 0x20001000)  returns 0x00 (0000ms, 0491ms total)
T2FF4 000:897 JLINK_WriteReg(PSP, 0x20001000)  returns 0x00 (0000ms, 0491ms total)
T2FF4 000:897 JLINK_WriteReg(CFBP, 0x00000000)  returns 0x00 (0000ms, 0491ms total)
T2FF4 000:897 JLINK_SetBPEx(Addr = 0x20000000, Type = 0xFFFFFFF2)  returns 0x00000008 (0000ms, 0491ms total)
T2FF4 000:897 JLINK_Go() -- CPU_ReadMem(4 bytes @ 0xE0001000) (0004ms, 0495ms total)
T2FF4 000:901 JLINK_IsHalted()  returns FALSE (0000ms, 0495ms total)
T2FF4 000:905 JLINK_IsHalted() -- CPU_ReadMem(2 bytes @ 0x20000000)  returns TRUE (0004ms, 0499ms total)
T2FF4 000:909 JLINK_ReadReg(R15 (PC))  returns 0x20000000 (0000ms, 0495ms total)
T2FF4 000:909 JLINK_ClrBPEx(BPHandle = 0x00000008)  returns 0x00 (0000ms, 0495ms total)
T2FF4 000:909 JLINK_ReadReg(R0)  returns 0x00000000 (0000ms, 0495ms total)
T2FF4 000:910 JLINK_WriteMem(0x20000180, 0x0400 Bytes, ...) - Data: 01 68 C9 05 03 D4 01 68 21 F0 08 01 01 60 21 6C ... -- CPU_WriteMem(1024 bytes @ 0x20000180)  returns 0x400 (0013ms, 0508ms total)
T2FF4 000:923 JLINK_WriteReg(R0, 0x08000C00)  returns 0x00 (0000ms, 0508ms total)
T2FF4 000:923 JLINK_WriteReg(R1, 0x00000400)  returns 0x00 (0000ms, 0508ms total)
T2FF4 000:923 JLINK_WriteReg(R2, 0x20000180)  returns 0x00 (0000ms, 0508ms total)
T2FF4 000:923 JLINK_WriteReg(R3, 0x00000000)  returns 0x00 (0000ms, 0508ms total)
T2FF4 000:923 JLINK_WriteReg(R4, 0x00000000)  returns 0x00 (0000ms, 0508ms total)
T2FF4 000:923 JLINK_WriteReg(R5, 0x00000000)  returns 0x00 (0000ms, 0508ms total)
T2FF4 000:923 JLINK_WriteReg(R6, 0x00000000)  returns 0x00 (0000ms, 0508ms total)
T2FF4 000:923 JLINK_WriteReg(R7, 0x00000000)  returns 0x00 (0000ms, 0508ms total)
T2FF4 000:923 JLINK_WriteReg(R8, 0x00000000)  returns 0x00 (0000ms, 0508ms total)
T2FF4 000:923 JLINK_WriteReg(R9, 0x2000017C)  returns 0x00 (0000ms, 0508ms total)
T2FF4 000:923 JLINK_WriteReg(R10, 0x00000000)  returns 0x00 (0000ms, 0508ms total)
T2FF4 000:923 JLINK_WriteReg(R11, 0x00000000)  returns 0x00 (0000ms, 0508ms total)
T2FF4 000:923 JLINK_WriteReg(R12, 0x00000000)  returns 0x00 (0000ms, 0508ms total)
T2FF4 000:923 JLINK_WriteReg(R13 (SP), 0x20001000)  returns 0x00 (0000ms, 0508ms total)
T2FF4 000:923 JLINK_WriteReg(R14, 0x20000001)  returns 0x00 (0000ms, 0508ms total)
T2FF4 000:923 JLINK_WriteReg(R15 (PC), 0x20000108)  returns 0x00 (0000ms, 0508ms total)
T2FF4 000:923 JLINK_WriteReg(XPSR, 0x01000000)  returns 0x00 (0000ms, 0508ms total)
T2FF4 000:923 JLINK_WriteReg(MSP, 0x20001000)  returns 0x00 (0000ms, 0508ms total)
T2FF4 000:923 JLINK_WriteReg(PSP, 0x20001000)  returns 0x00 (0000ms, 0508ms total)
T2FF4 000:923 JLINK_WriteReg(CFBP, 0x00000000)  returns 0x00 (0000ms, 0508ms total)
T2FF4 000:923 JLINK_SetBPEx(Addr = 0x20000000, Type = 0xFFFFFFF2)  returns 0x00000009 (0000ms, 0508ms total)
T2FF4 000:923 JLINK_Go() -- CPU_ReadMem(4 bytes @ 0xE0001000) (0003ms, 0511ms total)
T2FF4 000:926 JLINK_IsHalted()  returns FALSE (0001ms, 0512ms total)
T2FF4 000:929 JLINK_IsHalted()  returns FALSE (0000ms, 0511ms total)
T2FF4 000:931 JLINK_IsHalted() -- CPU_ReadMem(2 bytes @ 0x20000000)  returns TRUE (0004ms, 0515ms total)
T2FF4 000:935 JLINK_ReadReg(R15 (PC))  returns 0x20000000 (0000ms, 0511ms total)
T2FF4 000:935 JLINK_ClrBPEx(BPHandle = 0x00000009)  returns 0x00 (0000ms, 0511ms total)
T2FF4 000:935 JLINK_ReadReg(R0)  returns 0x00000000 (0000ms, 0511ms total)
T2FF4 000:936 JLINK_WriteMem(0x20000180, 0x0400 Bytes, ...) - Data: 84 42 18 D0 9C 48 84 42 15 D0 9C 48 84 42 12 D0 ... -- CPU_WriteMem(1024 bytes @ 0x20000180)  returns 0x400 (0013ms, 0524ms total)
T2FF4 000:949 JLINK_WriteReg(R0, 0x08001000)  returns 0x00 (0000ms, 0524ms total)
T2FF4 000:949 JLINK_WriteReg(R1, 0x00000400)  returns 0x00 (0000ms, 0524ms total)
T2FF4 000:949 JLINK_WriteReg(R2, 0x20000180)  returns 0x00 (0000ms, 0524ms total)
T2FF4 000:949 JLINK_WriteReg(R3, 0x00000000)  returns 0x00 (0000ms, 0524ms total)
T2FF4 000:949 JLINK_WriteReg(R4, 0x00000000)  returns 0x00 (0000ms, 0524ms total)
T2FF4 000:949 JLINK_WriteReg(R5, 0x00000000)  returns 0x00 (0000ms, 0524ms total)
T2FF4 000:949 JLINK_WriteReg(R6, 0x00000000)  returns 0x00 (0000ms, 0524ms total)
T2FF4 000:949 JLINK_WriteReg(R7, 0x00000000)  returns 0x00 (0000ms, 0524ms total)
T2FF4 000:949 JLINK_WriteReg(R8, 0x00000000)  returns 0x00 (0000ms, 0524ms total)
T2FF4 000:949 JLINK_WriteReg(R9, 0x2000017C)  returns 0x00 (0000ms, 0524ms total)
T2FF4 000:949 JLINK_WriteReg(R10, 0x00000000)  returns 0x00 (0000ms, 0524ms total)
T2FF4 000:949 JLINK_WriteReg(R11, 0x00000000)  returns 0x00 (0000ms, 0524ms total)
T2FF4 000:949 JLINK_WriteReg(R12, 0x00000000)  returns 0x00 (0000ms, 0524ms total)
T2FF4 000:949 JLINK_WriteReg(R13 (SP), 0x20001000)  returns 0x00 (0000ms, 0524ms total)
T2FF4 000:949 JLINK_WriteReg(R14, 0x20000001)  returns 0x00 (0000ms, 0524ms total)
T2FF4 000:949 JLINK_WriteReg(R15 (PC), 0x20000108)  returns 0x00 (0000ms, 0524ms total)
T2FF4 000:949 JLINK_WriteReg(XPSR, 0x01000000)  returns 0x00 (0000ms, 0524ms total)
T2FF4 000:949 JLINK_WriteReg(MSP, 0x20001000)  returns 0x00 (0000ms, 0524ms total)
T2FF4 000:949 JLINK_WriteReg(PSP, 0x20001000)  returns 0x00 (0000ms, 0524ms total)
T2FF4 000:949 JLINK_WriteReg(CFBP, 0x00000000)  returns 0x00 (0000ms, 0524ms total)
T2FF4 000:949 JLINK_SetBPEx(Addr = 0x20000000, Type = 0xFFFFFFF2)  returns 0x0000000A (0000ms, 0524ms total)
T2FF4 000:949 JLINK_Go() -- CPU_ReadMem(4 bytes @ 0xE0001000) (0003ms, 0527ms total)
T2FF4 000:952 JLINK_IsHalted()  returns FALSE (0001ms, 0528ms total)
T2FF4 000:955 JLINK_IsHalted()  returns FALSE (0000ms, 0527ms total)
T2FF4 000:957 JLINK_IsHalted() -- CPU_ReadMem(2 bytes @ 0x20000000)  returns TRUE (0004ms, 0531ms total)
T2FF4 000:961 JLINK_ReadReg(R15 (PC))  returns 0x20000000 (0000ms, 0527ms total)
T2FF4 000:961 JLINK_ClrBPEx(BPHandle = 0x0000000A)  returns 0x00 (0000ms, 0527ms total)
T2FF4 000:961 JLINK_ReadReg(R0)  returns 0x00000000 (0000ms, 0527ms total)
T2FF4 000:961 JLINK_WriteMem(0x20000180, 0x0400 Bytes, ...) - Data: 02 F0 D8 F8 10 B1 01 20 08 B0 10 BD 04 48 02 F0 ... -- CPU_WriteMem(1024 bytes @ 0x20000180)  returns 0x400 (0013ms, 0540ms total)
T2FF4 000:974 JLINK_WriteReg(R0, 0x08001400)  returns 0x00 (0000ms, 0540ms total)
T2FF4 000:974 JLINK_WriteReg(R1, 0x00000400)  returns 0x00 (0000ms, 0540ms total)
T2FF4 000:974 JLINK_WriteReg(R2, 0x20000180)  returns 0x00 (0000ms, 0540ms total)
T2FF4 000:974 JLINK_WriteReg(R3, 0x00000000)  returns 0x00 (0000ms, 0540ms total)
T2FF4 000:974 JLINK_WriteReg(R4, 0x00000000)  returns 0x00 (0000ms, 0540ms total)
T2FF4 000:974 JLINK_WriteReg(R5, 0x00000000)  returns 0x00 (0000ms, 0540ms total)
T2FF4 000:974 JLINK_WriteReg(R6, 0x00000000)  returns 0x00 (0000ms, 0540ms total)
T2FF4 000:974 JLINK_WriteReg(R7, 0x00000000)  returns 0x00 (0000ms, 0540ms total)
T2FF4 000:974 JLINK_WriteReg(R8, 0x00000000)  returns 0x00 (0000ms, 0540ms total)
T2FF4 000:974 JLINK_WriteReg(R9, 0x2000017C)  returns 0x00 (0000ms, 0540ms total)
T2FF4 000:974 JLINK_WriteReg(R10, 0x00000000)  returns 0x00 (0000ms, 0540ms total)
T2FF4 000:974 JLINK_WriteReg(R11, 0x00000000)  returns 0x00 (0000ms, 0540ms total)
T2FF4 000:974 JLINK_WriteReg(R12, 0x00000000)  returns 0x00 (0000ms, 0540ms total)
T2FF4 000:974 JLINK_WriteReg(R13 (SP), 0x20001000)  returns 0x00 (0000ms, 0540ms total)
T2FF4 000:974 JLINK_WriteReg(R14, 0x20000001)  returns 0x00 (0000ms, 0540ms total)
T2FF4 000:974 JLINK_WriteReg(R15 (PC), 0x20000108)  returns 0x00 (0000ms, 0540ms total)
T2FF4 000:974 JLINK_WriteReg(XPSR, 0x01000000)  returns 0x00 (0000ms, 0540ms total)
T2FF4 000:974 JLINK_WriteReg(MSP, 0x20001000)  returns 0x00 (0000ms, 0540ms total)
T2FF4 000:974 JLINK_WriteReg(PSP, 0x20001000)  returns 0x00 (0000ms, 0540ms total)
T2FF4 000:974 JLINK_WriteReg(CFBP, 0x00000000)  returns 0x00 (0000ms, 0540ms total)
T2FF4 000:974 JLINK_SetBPEx(Addr = 0x20000000, Type = 0xFFFFFFF2)  returns 0x0000000B (0000ms, 0540ms total)
T2FF4 000:974 JLINK_Go() -- CPU_ReadMem(4 bytes @ 0xE0001000) (0003ms, 0543ms total)
T2FF4 000:978 JLINK_IsHalted()  returns FALSE (0000ms, 0543ms total)
T2FF4 000:980 JLINK_IsHalted()  returns FALSE (0000ms, 0543ms total)
T2FF4 000:982 JLINK_IsHalted() -- CPU_ReadMem(2 bytes @ 0x20000000)  returns TRUE (0004ms, 0547ms total)
T2FF4 000:986 JLINK_ReadReg(R15 (PC))  returns 0x20000000 (0000ms, 0543ms total)
T2FF4 000:986 JLINK_ClrBPEx(BPHandle = 0x0000000B)  returns 0x00 (0000ms, 0543ms total)
T2FF4 000:986 JLINK_ReadReg(R0)  returns 0x00000000 (0000ms, 0543ms total)
T2FF4 000:987 JLINK_WriteMem(0x20000180, 0x0400 Bytes, ...) - Data: B8 03 01 28 07 D0 84 F8 B8 23 20 68 05 F0 19 FE ... -- CPU_WriteMem(1024 bytes @ 0x20000180)  returns 0x400 (0013ms, 0556ms total)
T2FF4 001:000 JLINK_WriteReg(R0, 0x08001800)  returns 0x00 (0000ms, 0556ms total)
T2FF4 001:000 JLINK_WriteReg(R1, 0x00000400)  returns 0x00 (0000ms, 0556ms total)
T2FF4 001:000 JLINK_WriteReg(R2, 0x20000180)  returns 0x00 (0000ms, 0556ms total)
T2FF4 001:000 JLINK_WriteReg(R3, 0x00000000)  returns 0x00 (0000ms, 0556ms total)
T2FF4 001:000 JLINK_WriteReg(R4, 0x00000000)  returns 0x00 (0000ms, 0556ms total)
T2FF4 001:000 JLINK_WriteReg(R5, 0x00000000)  returns 0x00 (0000ms, 0556ms total)
T2FF4 001:000 JLINK_WriteReg(R6, 0x00000000)  returns 0x00 (0000ms, 0556ms total)
T2FF4 001:000 JLINK_WriteReg(R7, 0x00000000)  returns 0x00 (0000ms, 0556ms total)
T2FF4 001:000 JLINK_WriteReg(R8, 0x00000000)  returns 0x00 (0000ms, 0556ms total)
T2FF4 001:000 JLINK_WriteReg(R9, 0x2000017C)  returns 0x00 (0000ms, 0556ms total)
T2FF4 001:000 JLINK_WriteReg(R10, 0x00000000)  returns 0x00 (0000ms, 0556ms total)
T2FF4 001:000 JLINK_WriteReg(R11, 0x00000000)  returns 0x00 (0000ms, 0556ms total)
T2FF4 001:000 JLINK_WriteReg(R12, 0x00000000)  returns 0x00 (0000ms, 0556ms total)
T2FF4 001:000 JLINK_WriteReg(R13 (SP), 0x20001000)  returns 0x00 (0000ms, 0556ms total)
T2FF4 001:000 JLINK_WriteReg(R14, 0x20000001)  returns 0x00 (0000ms, 0556ms total)
T2FF4 001:000 JLINK_WriteReg(R15 (PC), 0x20000108)  returns 0x00 (0000ms, 0556ms total)
T2FF4 001:000 JLINK_WriteReg(XPSR, 0x01000000)  returns 0x00 (0000ms, 0556ms total)
T2FF4 001:000 JLINK_WriteReg(MSP, 0x20001000)  returns 0x00 (0000ms, 0556ms total)
T2FF4 001:000 JLINK_WriteReg(PSP, 0x20001000)  returns 0x00 (0000ms, 0556ms total)
T2FF4 001:000 JLINK_WriteReg(CFBP, 0x00000000)  returns 0x00 (0000ms, 0556ms total)
T2FF4 001:000 JLINK_SetBPEx(Addr = 0x20000000, Type = 0xFFFFFFF2)  returns 0x0000000C (0000ms, 0556ms total)
T2FF4 001:000 JLINK_Go() -- CPU_ReadMem(4 bytes @ 0xE0001000) (0003ms, 0559ms total)
T2FF4 001:003 JLINK_IsHalted()  returns FALSE (0001ms, 0560ms total)
T2FF4 001:009 JLINK_IsHalted() -- CPU_ReadMem(2 bytes @ 0x20000000)  returns TRUE (0004ms, 0563ms total)
T2FF4 001:013 JLINK_ReadReg(R15 (PC))  returns 0x20000000 (0000ms, 0559ms total)
T2FF4 001:013 JLINK_ClrBPEx(BPHandle = 0x0000000C)  returns 0x00 (0000ms, 0559ms total)
T2FF4 001:013 JLINK_ReadReg(R0)  returns 0x00000000 (0000ms, 0559ms total)
T2FF4 001:014 JLINK_WriteMem(0x20000180, 0x0400 Bytes, ...) - Data: C0 51 C1 60 20 46 00 F0 71 F9 20 68 41 69 01 F4 ... -- CPU_WriteMem(1024 bytes @ 0x20000180)  returns 0x400 (0012ms, 0571ms total)
T2FF4 001:026 JLINK_WriteReg(R0, 0x08001C00)  returns 0x00 (0000ms, 0571ms total)
T2FF4 001:026 JLINK_WriteReg(R1, 0x00000400)  returns 0x00 (0000ms, 0571ms total)
T2FF4 001:026 JLINK_WriteReg(R2, 0x20000180)  returns 0x00 (0000ms, 0571ms total)
T2FF4 001:026 JLINK_WriteReg(R3, 0x00000000)  returns 0x00 (0000ms, 0571ms total)
T2FF4 001:026 JLINK_WriteReg(R4, 0x00000000)  returns 0x00 (0000ms, 0571ms total)
T2FF4 001:026 JLINK_WriteReg(R5, 0x00000000)  returns 0x00 (0000ms, 0571ms total)
T2FF4 001:026 JLINK_WriteReg(R6, 0x00000000)  returns 0x00 (0000ms, 0571ms total)
T2FF4 001:026 JLINK_WriteReg(R7, 0x00000000)  returns 0x00 (0000ms, 0571ms total)
T2FF4 001:026 JLINK_WriteReg(R8, 0x00000000)  returns 0x00 (0000ms, 0571ms total)
T2FF4 001:026 JLINK_WriteReg(R9, 0x2000017C)  returns 0x00 (0000ms, 0571ms total)
T2FF4 001:026 JLINK_WriteReg(R10, 0x00000000)  returns 0x00 (0001ms, 0572ms total)
T2FF4 001:027 JLINK_WriteReg(R11, 0x00000000)  returns 0x00 (0000ms, 0572ms total)
T2FF4 001:027 JLINK_WriteReg(R12, 0x00000000)  returns 0x00 (0000ms, 0572ms total)
T2FF4 001:027 JLINK_WriteReg(R13 (SP), 0x20001000)  returns 0x00 (0000ms, 0572ms total)
T2FF4 001:027 JLINK_WriteReg(R14, 0x20000001)  returns 0x00 (0000ms, 0572ms total)
T2FF4 001:027 JLINK_WriteReg(R15 (PC), 0x20000108)  returns 0x00 (0000ms, 0572ms total)
T2FF4 001:027 JLINK_WriteReg(XPSR, 0x01000000)  returns 0x00 (0000ms, 0572ms total)
T2FF4 001:027 JLINK_WriteReg(MSP, 0x20001000)  returns 0x00 (0000ms, 0572ms total)
T2FF4 001:027 JLINK_WriteReg(PSP, 0x20001000)  returns 0x00 (0000ms, 0572ms total)
T2FF4 001:027 JLINK_WriteReg(CFBP, 0x00000000)  returns 0x00 (0000ms, 0572ms total)
T2FF4 001:027 JLINK_SetBPEx(Addr = 0x20000000, Type = 0xFFFFFFF2)  returns 0x0000000D (0000ms, 0572ms total)
T2FF4 001:027 JLINK_Go() -- CPU_ReadMem(4 bytes @ 0xE0001000) (0003ms, 0575ms total)
T2FF4 001:030 JLINK_IsHalted()  returns FALSE (0001ms, 0576ms total)
T2FF4 001:033 JLINK_IsHalted()  returns FALSE (0000ms, 0575ms total)
T2FF4 001:035 JLINK_IsHalted() -- CPU_ReadMem(2 bytes @ 0x20000000)  returns TRUE (0004ms, 0579ms total)
T2FF4 001:039 JLINK_ReadReg(R15 (PC))  returns 0x20000000 (0000ms, 0575ms total)
T2FF4 001:039 JLINK_ClrBPEx(BPHandle = 0x0000000D)  returns 0x00 (0000ms, 0575ms total)
T2FF4 001:039 JLINK_ReadReg(R0)  returns 0x00000000 (0000ms, 0575ms total)
T2FF4 001:040 JLINK_WriteMem(0x20000180, 0x0400 Bytes, ...) - Data: 00 70 D8 F8 00 00 00 F0 0F 00 B0 42 4F D1 20 68 ... -- CPU_WriteMem(1024 bytes @ 0x20000180)  returns 0x400 (0012ms, 0587ms total)
T2FF4 001:052 JLINK_WriteReg(R0, 0x08002000)  returns 0x00 (0000ms, 0587ms total)
T2FF4 001:052 JLINK_WriteReg(R1, 0x00000400)  returns 0x00 (0000ms, 0587ms total)
T2FF4 001:052 JLINK_WriteReg(R2, 0x20000180)  returns 0x00 (0000ms, 0587ms total)
T2FF4 001:052 JLINK_WriteReg(R3, 0x00000000)  returns 0x00 (0000ms, 0587ms total)
T2FF4 001:052 JLINK_WriteReg(R4, 0x00000000)  returns 0x00 (0000ms, 0587ms total)
T2FF4 001:052 JLINK_WriteReg(R5, 0x00000000)  returns 0x00 (0000ms, 0587ms total)
T2FF4 001:052 JLINK_WriteReg(R6, 0x00000000)  returns 0x00 (0000ms, 0587ms total)
T2FF4 001:052 JLINK_WriteReg(R7, 0x00000000)  returns 0x00 (0000ms, 0587ms total)
T2FF4 001:052 JLINK_WriteReg(R8, 0x00000000)  returns 0x00 (0000ms, 0587ms total)
T2FF4 001:052 JLINK_WriteReg(R9, 0x2000017C)  returns 0x00 (0000ms, 0587ms total)
T2FF4 001:052 JLINK_WriteReg(R10, 0x00000000)  returns 0x00 (0000ms, 0587ms total)
T2FF4 001:052 JLINK_WriteReg(R11, 0x00000000)  returns 0x00 (0000ms, 0587ms total)
T2FF4 001:052 JLINK_WriteReg(R12, 0x00000000)  returns 0x00 (0000ms, 0587ms total)
T2FF4 001:052 JLINK_WriteReg(R13 (SP), 0x20001000)  returns 0x00 (0000ms, 0587ms total)
T2FF4 001:052 JLINK_WriteReg(R14, 0x20000001)  returns 0x00 (0000ms, 0587ms total)
T2FF4 001:052 JLINK_WriteReg(R15 (PC), 0x20000108)  returns 0x00 (0000ms, 0587ms total)
T2FF4 001:052 JLINK_WriteReg(XPSR, 0x01000000)  returns 0x00 (0001ms, 0588ms total)
T2FF4 001:053 JLINK_WriteReg(MSP, 0x20001000)  returns 0x00 (0000ms, 0588ms total)
T2FF4 001:053 JLINK_WriteReg(PSP, 0x20001000)  returns 0x00 (0000ms, 0588ms total)
T2FF4 001:053 JLINK_WriteReg(CFBP, 0x00000000)  returns 0x00 (0000ms, 0588ms total)
T2FF4 001:053 JLINK_SetBPEx(Addr = 0x20000000, Type = 0xFFFFFFF2)  returns 0x0000000E (0000ms, 0588ms total)
T2FF4 001:053 JLINK_Go() -- CPU_ReadMem(4 bytes @ 0xE0001000) (0002ms, 0590ms total)
T2FF4 001:055 JLINK_IsHalted()  returns FALSE (0001ms, 0591ms total)
T2FF4 001:060 JLINK_IsHalted() -- CPU_ReadMem(2 bytes @ 0x20000000)  returns TRUE (0004ms, 0594ms total)
T2FF4 001:064 JLINK_ReadReg(R15 (PC))  returns 0x20000000 (0000ms, 0590ms total)
T2FF4 001:064 JLINK_ClrBPEx(BPHandle = 0x0000000E)  returns 0x00 (0000ms, 0590ms total)
T2FF4 001:064 JLINK_ReadReg(R0)  returns 0x00000000 (0000ms, 0590ms total)
T2FF4 001:065 JLINK_WriteMem(0x20000180, 0x0400 Bytes, ...) - Data: 28 68 80 07 02 D5 E0 68 01 28 7D D1 28 68 21 69 ... -- CPU_WriteMem(1024 bytes @ 0x20000180)  returns 0x400 (0012ms, 0602ms total)
T2FF4 001:077 JLINK_WriteReg(R0, 0x08002400)  returns 0x00 (0000ms, 0602ms total)
T2FF4 001:077 JLINK_WriteReg(R1, 0x00000400)  returns 0x00 (0000ms, 0602ms total)
T2FF4 001:077 JLINK_WriteReg(R2, 0x20000180)  returns 0x00 (0000ms, 0602ms total)
T2FF4 001:077 JLINK_WriteReg(R3, 0x00000000)  returns 0x00 (0000ms, 0602ms total)
T2FF4 001:077 JLINK_WriteReg(R4, 0x00000000)  returns 0x00 (0000ms, 0602ms total)
T2FF4 001:077 JLINK_WriteReg(R5, 0x00000000)  returns 0x00 (0000ms, 0602ms total)
T2FF4 001:077 JLINK_WriteReg(R6, 0x00000000)  returns 0x00 (0000ms, 0602ms total)
T2FF4 001:077 JLINK_WriteReg(R7, 0x00000000)  returns 0x00 (0000ms, 0602ms total)
T2FF4 001:077 JLINK_WriteReg(R8, 0x00000000)  returns 0x00 (0000ms, 0602ms total)
T2FF4 001:077 JLINK_WriteReg(R9, 0x2000017C)  returns 0x00 (0000ms, 0602ms total)
T2FF4 001:077 JLINK_WriteReg(R10, 0x00000000)  returns 0x00 (0000ms, 0602ms total)
T2FF4 001:077 JLINK_WriteReg(R11, 0x00000000)  returns 0x00 (0000ms, 0602ms total)
T2FF4 001:077 JLINK_WriteReg(R12, 0x00000000)  returns 0x00 (0000ms, 0602ms total)
T2FF4 001:077 JLINK_WriteReg(R13 (SP), 0x20001000)  returns 0x00 (0000ms, 0602ms total)
T2FF4 001:077 JLINK_WriteReg(R14, 0x20000001)  returns 0x00 (0000ms, 0602ms total)
T2FF4 001:077 JLINK_WriteReg(R15 (PC), 0x20000108)  returns 0x00 (0001ms, 0603ms total)
T2FF4 001:078 JLINK_WriteReg(XPSR, 0x01000000)  returns 0x00 (0000ms, 0603ms total)
T2FF4 001:078 JLINK_WriteReg(MSP, 0x20001000)  returns 0x00 (0000ms, 0603ms total)
T2FF4 001:078 JLINK_WriteReg(PSP, 0x20001000)  returns 0x00 (0000ms, 0603ms total)
T2FF4 001:078 JLINK_WriteReg(CFBP, 0x00000000)  returns 0x00 (0000ms, 0603ms total)
T2FF4 001:078 JLINK_SetBPEx(Addr = 0x20000000, Type = 0xFFFFFFF2)  returns 0x0000000F (0000ms, 0603ms total)
T2FF4 001:078 JLINK_Go() -- CPU_ReadMem(4 bytes @ 0xE0001000) (0003ms, 0606ms total)
T2FF4 001:081 JLINK_IsHalted()  returns FALSE (0000ms, 0606ms total)
T2FF4 001:083 JLINK_IsHalted()  returns FALSE (0000ms, 0606ms total)
T2FF4 001:085 JLINK_IsHalted() -- CPU_ReadMem(2 bytes @ 0x20000000)  returns TRUE (0004ms, 0610ms total)
T2FF4 001:089 JLINK_ReadReg(R15 (PC))  returns 0x20000000 (0000ms, 0606ms total)
T2FF4 001:089 JLINK_ClrBPEx(BPHandle = 0x0000000F)  returns 0x00 (0000ms, 0606ms total)
T2FF4 001:089 JLINK_ReadReg(R0)  returns 0x00000000 (0000ms, 0606ms total)
T2FF4 001:090 JLINK_WriteMem(0x20000180, 0x0400 Bytes, ...) - Data: 2E 63 00 00 70 47 F0 B5 42 6E 12 0E 93 09 0B 70 ... -- CPU_WriteMem(1024 bytes @ 0x20000180)  returns 0x400 (0013ms, 0619ms total)
T2FF4 001:103 JLINK_WriteReg(R0, 0x08002800)  returns 0x00 (0000ms, 0619ms total)
T2FF4 001:103 JLINK_WriteReg(R1, 0x00000400)  returns 0x00 (0000ms, 0619ms total)
T2FF4 001:103 JLINK_WriteReg(R2, 0x20000180)  returns 0x00 (0000ms, 0619ms total)
T2FF4 001:103 JLINK_WriteReg(R3, 0x00000000)  returns 0x00 (0000ms, 0619ms total)
T2FF4 001:103 JLINK_WriteReg(R4, 0x00000000)  returns 0x00 (0000ms, 0619ms total)
T2FF4 001:103 JLINK_WriteReg(R5, 0x00000000)  returns 0x00 (0000ms, 0619ms total)
T2FF4 001:103 JLINK_WriteReg(R6, 0x00000000)  returns 0x00 (0000ms, 0619ms total)
T2FF4 001:103 JLINK_WriteReg(R7, 0x00000000)  returns 0x00 (0000ms, 0619ms total)
T2FF4 001:103 JLINK_WriteReg(R8, 0x00000000)  returns 0x00 (0000ms, 0619ms total)
T2FF4 001:103 JLINK_WriteReg(R9, 0x2000017C)  returns 0x00 (0000ms, 0619ms total)
T2FF4 001:103 JLINK_WriteReg(R10, 0x00000000)  returns 0x00 (0000ms, 0619ms total)
T2FF4 001:103 JLINK_WriteReg(R11, 0x00000000)  returns 0x00 (0000ms, 0619ms total)
T2FF4 001:103 JLINK_WriteReg(R12, 0x00000000)  returns 0x00 (0000ms, 0619ms total)
T2FF4 001:103 JLINK_WriteReg(R13 (SP), 0x20001000)  returns 0x00 (0000ms, 0619ms total)
T2FF4 001:103 JLINK_WriteReg(R14, 0x20000001)  returns 0x00 (0000ms, 0619ms total)
T2FF4 001:103 JLINK_WriteReg(R15 (PC), 0x20000108)  returns 0x00 (0000ms, 0619ms total)
T2FF4 001:103 JLINK_WriteReg(XPSR, 0x01000000)  returns 0x00 (0000ms, 0619ms total)
T2FF4 001:103 JLINK_WriteReg(MSP, 0x20001000)  returns 0x00 (0000ms, 0619ms total)
T2FF4 001:103 JLINK_WriteReg(PSP, 0x20001000)  returns 0x00 (0000ms, 0619ms total)
T2FF4 001:103 JLINK_WriteReg(CFBP, 0x00000000)  returns 0x00 (0000ms, 0619ms total)
T2FF4 001:103 JLINK_SetBPEx(Addr = 0x20000000, Type = 0xFFFFFFF2)  returns 0x00000010 (0000ms, 0619ms total)
T2FF4 001:103 JLINK_Go() -- CPU_ReadMem(4 bytes @ 0xE0001000) (0003ms, 0622ms total)
T2FF4 001:106 JLINK_IsHalted()  returns FALSE (0001ms, 0623ms total)
T2FF4 001:115 JLINK_IsHalted() -- CPU_ReadMem(2 bytes @ 0x20000000)  returns TRUE (0004ms, 0626ms total)
T2FF4 001:119 JLINK_ReadReg(R15 (PC))  returns 0x20000000 (0000ms, 0622ms total)
T2FF4 001:119 JLINK_ClrBPEx(BPHandle = 0x00000010)  returns 0x00 (0000ms, 0622ms total)
T2FF4 001:119 JLINK_ReadReg(R0)  returns 0x00000000 (0000ms, 0622ms total)
T2FF4 001:120 JLINK_WriteMem(0x20000180, 0x0400 Bytes, ...) - Data: 9E 71 2D A0 04 F0 42 FE 60 68 38 B1 B0 F5 00 5F ... -- CPU_WriteMem(1024 bytes @ 0x20000180)  returns 0x400 (0012ms, 0634ms total)
T2FF4 001:132 JLINK_WriteReg(R0, 0x08002C00)  returns 0x00 (0000ms, 0634ms total)
T2FF4 001:132 JLINK_WriteReg(R1, 0x00000400)  returns 0x00 (0000ms, 0634ms total)
T2FF4 001:132 JLINK_WriteReg(R2, 0x20000180)  returns 0x00 (0000ms, 0634ms total)
T2FF4 001:132 JLINK_WriteReg(R3, 0x00000000)  returns 0x00 (0000ms, 0634ms total)
T2FF4 001:132 JLINK_WriteReg(R4, 0x00000000)  returns 0x00 (0000ms, 0634ms total)
T2FF4 001:132 JLINK_WriteReg(R5, 0x00000000)  returns 0x00 (0000ms, 0634ms total)
T2FF4 001:132 JLINK_WriteReg(R6, 0x00000000)  returns 0x00 (0000ms, 0634ms total)
T2FF4 001:132 JLINK_WriteReg(R7, 0x00000000)  returns 0x00 (0000ms, 0634ms total)
T2FF4 001:132 JLINK_WriteReg(R8, 0x00000000)  returns 0x00 (0000ms, 0634ms total)
T2FF4 001:132 JLINK_WriteReg(R9, 0x2000017C)  returns 0x00 (0000ms, 0634ms total)
T2FF4 001:132 JLINK_WriteReg(R10, 0x00000000)  returns 0x00 (0000ms, 0634ms total)
T2FF4 001:132 JLINK_WriteReg(R11, 0x00000000)  returns 0x00 (0000ms, 0634ms total)
T2FF4 001:132 JLINK_WriteReg(R12, 0x00000000)  returns 0x00 (0000ms, 0634ms total)
T2FF4 001:132 JLINK_WriteReg(R13 (SP), 0x20001000)  returns 0x00 (0000ms, 0634ms total)
T2FF4 001:132 JLINK_WriteReg(R14, 0x20000001)  returns 0x00 (0000ms, 0634ms total)
T2FF4 001:132 JLINK_WriteReg(R15 (PC), 0x20000108)  returns 0x00 (0000ms, 0634ms total)
